[2021-Nov-10 15:26:10] [ info] --------------------------------------------------------------------------------
[2021-Nov-10 15:26:10] [ info] nrfjprog --deviceversion --log 
[2021-Nov-10 15:26:10] [ info] nrfjprog version 10.15.0 external
[2021-Nov-10 15:26:10] [ info] --------------------------------------------------------------------------------
[2021-Nov-10 15:26:10] [ info] Load library at /Applications/Nordic Semiconductor/lib/libnrfjprogdll.dylib.
[2021-Nov-10 15:26:10] [ info] Library loaded, loading member functions.
[2021-Nov-10 15:26:10] [ info] Member functions succesfully loaded.
[2021-Nov-10 15:26:10] [debug] [ Client] - open
[2021-Nov-10 15:26:10] [debug] [ Client] - start
[2021-Nov-10 15:26:10] [ info] [ Client] - stdout: Jlinkarm nRF Worker ready. Handling sequence dfbb3966-2e24-4e7e-bb67-28c7056b3a02.
[2021-Nov-10 15:26:10] [trace] [ Client] - Command open executed for 11 milliseconds with result 0
[2021-Nov-10 15:26:10] [debug] [ Client] - enum_emu_snr
[2021-Nov-10 15:26:10] [trace] [ Client] - Command enum_emu_con_info executed for 6 milliseconds with result 0
[2021-Nov-10 15:26:10] [debug] [ Client] - connect_to_emu_with_snr
[2021-Nov-10 15:26:10] [debug] [SeggerBackend] - Logger sink registered in Segger backend logger
[2021-Nov-10 15:26:10] [debug] [  JLink] - Logger sink registered in JLink logger
[2021-Nov-10 15:26:10] [debug] [  nRFXX] - open
[2021-Nov-10 15:26:10] [debug] [  nRFXX] - just_check_family
[2021-Nov-10 15:26:10] [debug] [SeggerBackend] - open_dll
[2021-Nov-10 15:26:10] [debug] [SeggerBackend] - No J-Link DLL path was provided. Attempting to auto detect.
[2021-Nov-10 15:26:10] [ info] [SeggerBackend] - Load library at /Applications/SEGGER/JLink/libjlinkarm.7.58.0.dylib.
[2021-Nov-10 15:26:10] [ info] [SeggerBackend] - Library loaded, loading member functions.
[2021-Nov-10 15:26:10] [ info] [SeggerBackend] - Member functions succesfully loaded.
[2021-Nov-10 15:26:10] [debug] [SeggerBackend] - dll_version
[2021-Nov-10 15:26:10] [ info] [SeggerBackend] - Segger dll version 7.58.  loaded.
[2021-Nov-10 15:26:10] [trace] [ Worker] - Command open executed for 5 milliseconds with result 0
[2021-Nov-10 15:26:10] [debug] [  nRFXX] - enum_emu_con_info
[2021-Nov-10 15:26:10] [debug] [SeggerBackend] - is_connected_to_emu
[2021-Nov-10 15:26:10] [debug] [SeggerBackend] - enum_emu_con_info
[2021-Nov-10 15:26:10] [debug] [SeggerBackend] - is_connected_to_emu
[2021-Nov-10 15:26:10] [trace] [ Worker] - Command enum_emu_con_info executed for 0 milliseconds with result 0
[2021-Nov-10 15:26:10] [debug] [  nRFXX] - connect_to_emu_with_snr
[2021-Nov-10 15:26:10] [debug] [SeggerBackend] - is_connected_to_emu
[2021-Nov-10 15:26:10] [debug] [SeggerBackend] - connect_to_emu_with_snr
[2021-Nov-10 15:26:10] [debug] [SeggerBackend] - is_connected_to_emu
[2021-Nov-10 15:26:10] [debug] [SeggerBackend] - ---just_enum_emu_snr
[2021-Nov-10 15:26:10] [debug] [SeggerBackend] - ---just_get_num_emus
[2021-Nov-10 15:26:10] [debug] [SeggerBackend] - ---just_connect_to_emu_with_snr
[2021-Nov-10 15:26:10] [debug] [SeggerBackend] - ---just_connect_to_emu_without_snr
[2021-Nov-10 15:26:10] [debug] [SeggerBackend] - Segger logging enabled.
[2021-Nov-10 15:26:10] [trace] [  JLink] - Firmware: J-Link EDU Mini V1 compiled Nov  2 2021 11:12:01
[2021-Nov-10 15:26:10] [trace] [  JLink] - Firmware: J-Link EDU Mini V1 compiled Nov  2 2021 11:12:01
[2021-Nov-10 15:26:10] [trace] [  JLink] - Hardware: V1.00
[2021-Nov-10 15:26:10] [trace] [  JLink] - S/N: 801036476
[2021-Nov-10 15:26:10] [trace] [  JLink] - OEM: SEGGER
[2021-Nov-10 15:26:10] [trace] [  JLink] - Feature(s): FlashBP, GDB
[2021-Nov-10 15:26:10] [trace] [  JLink] - TELNET listener socket opened on port 19021
[2021-Nov-10 15:26:10] [trace] [  JLink] - WEBSRV WEBSRV_Init(): Starting webserver thread(s)
[2021-Nov-10 15:26:10] [trace] [  JLink] - WEBSRV Webserver running on local port 19080
[2021-Nov-10 15:26:10] [trace] [  JLink] - - 29.693ms returns "O.K."  
[2021-Nov-10 15:26:10] [trace] [  JLink] - JLINK_HasError()  
[2021-Nov-10 15:26:10] [trace] [  JLink] - JLINK_Lock()  
[2021-Nov-10 15:26:10] [trace] [  JLink] - JLINK_GetHWStatus(...)  
[2021-Nov-10 15:26:10] [trace] [  JLink] - - 0.776ms returns 0  
[2021-Nov-10 15:26:10] [trace] [  JLink] - JLINK_HasError()  
[2021-Nov-10 15:26:10] [trace] [  JLink] - JLINK_ExecCommand("SetRestartOnClose = 0", ...).   
[2021-Nov-10 15:26:10] [trace] [  JLink] - - 0.004ms returns 0x01  
[2021-Nov-10 15:26:10] [trace] [  JLink] - JLINK_HasError()  
[2021-Nov-10 15:26:10] [trace] [  JLink] - JLINK_ExecCommand("DisableFlashDL", ...).   
[2021-Nov-10 15:26:10] [trace] [  JLink] - - 0.002ms returns 0x00  
[2021-Nov-10 15:26:10] [trace] [  JLink] - JLINK_HasError()  
[2021-Nov-10 15:26:10] [trace] [  JLink] - JLINK_ExecCommand("ExcludeFlashCacheRange 0x0-0xFFFFFFFF", ...).   
[2021-Nov-10 15:26:10] [trace] [  JLink] - - 0.002ms returns 0x00  
[2021-Nov-10 15:26:10] [trace] [  JLink] - JLINK_HasError()  
[2021-Nov-10 15:26:10] [trace] [  JLink] - JLINK_SetHookUnsecureDialog  
[2021-Nov-10 15:26:10] [trace] [  JLink] - JLINK_SetHookUnsecureDialog(...)
[2021-Nov-10 15:26:10] [trace] [  JLink] - - 0.005ms returns 0  
[2021-Nov-10 15:26:10] [trace] [  JLink] - JLINK_HasError()  
[2021-Nov-10 15:26:10] [trace] [  JLink] - JLINK_TIF_Select(JLINKARM_TIF_SWD)  
[2021-Nov-10 15:26:10] [trace] [  JLink] - - 2.640ms returns 0x00  
[2021-Nov-10 15:26:10] [trace] [  JLink] - JLINK_HasError()  
[2021-Nov-10 15:26:10] [trace] [  JLink] - JLINK_SetSpeed(2000)  
[2021-Nov-10 15:26:10] [trace] [  JLink] - - 0.156ms  
[2021-Nov-10 15:26:10] [trace] [  JLink] - JLINK_HasError()  
[2021-Nov-10 15:26:10] [trace] [  JLink] - JLINK_GetSN()  
[2021-Nov-10 15:26:10] [trace] [  JLink] - - 0.002ms returns 801036476  
[2021-Nov-10 15:26:10] [trace] [  JLink] - JLINK_HasError()  
[2021-Nov-10 15:26:10] [debug] [SeggerBackend] - read_debug_port_idr
[2021-Nov-10 15:26:10] [debug] [SeggerBackend] - read_debug_port_register
[2021-Nov-10 15:26:10] [debug] [SeggerBackend] - ---just_read_debug_port_register
[2021-Nov-10 15:26:10] [debug] [SeggerBackend] - coresight_configure
[2021-Nov-10 15:26:10] [trace] [  JLink] - JLINK_CORESIGHT_Configure()  
[2021-Nov-10 15:26:10] [trace] [  JLink] - - 99.172ms returns 0  
[2021-Nov-10 15:26:10] [trace] [  JLink] - JLINK_HasError()  
[2021-Nov-10 15:26:10] [debug] [SeggerBackend] - ---just_select_debug_port_register
[2021-Nov-10 15:26:10] [debug] [SeggerBackend] - Select AP 255, DP Bank 0, AP Bank 255
[2021-Nov-10 15:26:10] [trace] [  JLink] - JLINK_CORESIGHT_WriteAPDPReg(DP reg 0x02, 0x00000000)  
[2021-Nov-10 15:26:10] [trace] [  JLink] - - 0.866ms returns -1  
[2021-Nov-10 15:26:10] [trace] [  JLink] - JLINK_HasError()  
[2021-Nov-10 15:26:10] [error] [SeggerBackend] - JLinkARM.dll reported "-1", "An unknown error.".
[2021-Nov-10 15:26:10] [debug] [SeggerBackend] - ---just_abort_debug_action
[2021-Nov-10 15:26:10] [debug] [SeggerBackend] - Attempting to clear any configuration errors in debug port before closing connection. 
[2021-Nov-10 15:26:10] [trace] [  JLink] - JLINK_CORESIGHT_WriteAPDPReg(DP reg 0x00, 0x0000001F)  
[2021-Nov-10 15:26:10] [trace] [  JLink] - - 1.017ms returns -1  
[2021-Nov-10 15:26:10] [trace] [  JLink] - JLINK_HasError()  
[2021-Nov-10 15:26:10] [error] [SeggerBackend] - JLinkARM.dll reported "-1", "An unknown error.".
[2021-Nov-10 15:26:10] [trace] [  JLink] - JLINK_CORESIGHT_WriteAPDPReg(DP reg 0x00, 0x0000001F)  
[2021-Nov-10 15:26:10] [trace] [  JLink] - - 0.980ms returns -1  
[2021-Nov-10 15:26:10] [trace] [  JLink] - JLINK_HasError()  
[2021-Nov-10 15:26:10] [error] [SeggerBackend] - JLinkARM.dll reported "-1", "An unknown error.".
[2021-Nov-10 15:26:10] [trace] [  JLink] - JLINK_CORESIGHT_WriteAPDPReg(DP reg 0x00, 0x0000001F)  
[2021-Nov-10 15:26:10] [trace] [  JLink] - - 0.939ms returns -1  
[2021-Nov-10 15:26:10] [trace] [  JLink] - JLINK_HasError()  
[2021-Nov-10 15:26:10] [error] [SeggerBackend] - JLinkARM.dll reported "-1", "An unknown error.".
[2021-Nov-10 15:26:10] [trace] [  JLink] - JLINK_CORESIGHT_WriteAPDPReg(DP reg 0x00, 0x0000001F)  
[2021-Nov-10 15:26:10] [trace] [  JLink] - - 0.933ms returns -1  
[2021-Nov-10 15:26:10] [trace] [  JLink] - JLINK_HasError()  
[2021-Nov-10 15:26:10] [error] [SeggerBackend] - JLinkARM.dll reported "-1", "An unknown error.".
[2021-Nov-10 15:26:10] [trace] [  JLink] - JLINK_CORESIGHT_WriteAPDPReg(DP reg 0x00, 0x0000001F)  
[2021-Nov-10 15:26:10] [trace] [  JLink] - - 0.924ms returns -1  
[2021-Nov-10 15:26:10] [trace] [  JLink] - JLINK_HasError()  
[2021-Nov-10 15:26:10] [error] [SeggerBackend] - JLinkARM.dll reported "-1", "An unknown error.".
[2021-Nov-10 15:26:10] [trace] [  JLink] - JLINK_CORESIGHT_WriteAPDPReg(DP reg 0x02, 0x00000000)  
[2021-Nov-10 15:26:10] [trace] [  JLink] - - 0.981ms returns -1  
[2021-Nov-10 15:26:10] [trace] [  JLink] - JLINK_HasError()  
[2021-Nov-10 15:26:10] [error] [SeggerBackend] - JLinkARM.dll reported "-1", "An unknown error.".
[2021-Nov-10 15:26:10] [debug] [SeggerBackend] - ---just_abort_debug_action
[2021-Nov-10 15:26:10] [debug] [SeggerBackend] - Attempting to clear any configuration errors in debug port before closing connection. 
[2021-Nov-10 15:26:10] [trace] [  JLink] - JLINK_CORESIGHT_WriteAPDPReg(DP reg 0x00, 0x0000001F)  
[2021-Nov-10 15:26:10] [trace] [  JLink] - - 0.930ms returns -1  
[2021-Nov-10 15:26:10] [trace] [  JLink] - JLINK_HasError()  
[2021-Nov-10 15:26:10] [error] [SeggerBackend] - JLinkARM.dll reported "-1", "An unknown error.".
[2021-Nov-10 15:26:10] [trace] [  JLink] - JLINK_CORESIGHT_WriteAPDPReg(DP reg 0x00, 0x0000001F)  
[2021-Nov-10 15:26:10] [trace] [  JLink] - - 0.976ms returns -1  
[2021-Nov-10 15:26:10] [trace] [  JLink] - JLINK_HasError()  
[2021-Nov-10 15:26:10] [error] [SeggerBackend] - JLinkARM.dll reported "-1", "An unknown error.".
[2021-Nov-10 15:26:10] [trace] [  JLink] - JLINK_CORESIGHT_WriteAPDPReg(DP reg 0x00, 0x0000001F)  
[2021-Nov-10 15:26:10] [trace] [  JLink] - - 0.946ms returns -1  
[2021-Nov-10 15:26:10] [trace] [  JLink] - JLINK_HasError()  
[2021-Nov-10 15:26:10] [error] [SeggerBackend] - JLinkARM.dll reported "-1", "An unknown error.".
[2021-Nov-10 15:26:10] [trace] [  JLink] - JLINK_CORESIGHT_WriteAPDPReg(DP reg 0x00, 0x0000001F)  
[2021-Nov-10 15:26:10] [trace] [  JLink] - - 0.962ms returns -1  
[2021-Nov-10 15:26:10] [trace] [  JLink] - JLINK_HasError()  
[2021-Nov-10 15:26:10] [error] [SeggerBackend] - JLinkARM.dll reported "-1", "An unknown error.".
[2021-Nov-10 15:26:10] [trace] [  JLink] - JLINK_CORESIGHT_WriteAPDPReg(DP reg 0x00, 0x0000001F)  
[2021-Nov-10 15:26:10] [trace] [  JLink] - - 0.968ms returns -1  
[2021-Nov-10 15:26:10] [trace] [  JLink] - JLINK_HasError()  
[2021-Nov-10 15:26:10] [error] [SeggerBackend] - JLinkARM.dll reported "-1", "An unknown error.".
[2021-Nov-10 15:26:10] [trace] [  JLink] - JLINK_CORESIGHT_WriteAPDPReg(DP reg 0x02, 0x00000000)  
[2021-Nov-10 15:26:10] [trace] [  JLink] - - 1.048ms returns -1  
[2021-Nov-10 15:26:10] [trace] [  JLink] - JLINK_HasError()  
[2021-Nov-10 15:26:10] [error] [SeggerBackend] - JLinkARM.dll reported "-1", "An unknown error.".
[2021-Nov-10 15:26:10] [debug] [SeggerBackend] - ---just_abort_debug_action
[2021-Nov-10 15:26:10] [debug] [SeggerBackend] - Attempting to clear any configuration errors in debug port before closing connection. 
[2021-Nov-10 15:26:10] [trace] [  JLink] - JLINK_CORESIGHT_WriteAPDPReg(DP reg 0x00, 0x0000001F)  
[2021-Nov-10 15:26:10] [trace] [  JLink] - - 0.874ms returns -1  
[2021-Nov-10 15:26:10] [trace] [  JLink] - JLINK_HasError()  
[2021-Nov-10 15:26:10] [error] [SeggerBackend] - JLinkARM.dll reported "-1", "An unknown error.".
[2021-Nov-10 15:26:10] [trace] [  JLink] - JLINK_CORESIGHT_WriteAPDPReg(DP reg 0x00, 0x0000001F)  
[2021-Nov-10 15:26:10] [trace] [ Client] - Command connect_to_emu_with_snr executed for 198 milliseconds with result -102
[2021-Nov-10 15:26:10] [trace] [  JLink] - - 0.969ms returns -1  
[2021-Nov-10 15:26:10] [trace] [  JLink] - JLINK_HasError()  
[2021-Nov-10 15:26:10] [error] [SeggerBackend] - JLinkARM.dll reported "-1", "An unknown error.".
[2021-Nov-10 15:26:10] [trace] [  JLink] - JLINK_CORESIGHT_WriteAPDPReg(DP reg 0x00, 0x0000001F)  
[2021-Nov-10 15:26:10] [trace] [  JLink] - - 0.974ms returns -1  
[2021-Nov-10 15:26:10] [trace] [  JLink] - JLINK_HasError()  
[2021-Nov-10 15:26:10] [error] [SeggerBackend] - JLinkARM.dll reported "-1", "An unknown error.".
[2021-Nov-10 15:26:10] [trace] [  JLink] - JLINK_CORESIGHT_WriteAPDPReg(DP reg 0x00, 0x0000001F)  
[2021-Nov-10 15:26:10] [trace] [  JLink] - - 0.943ms returns -1  
[2021-Nov-10 15:26:10] [trace] [  JLink] - JLINK_HasError()  
[2021-Nov-10 15:26:10] [error] [SeggerBackend] - JLinkARM.dll reported "-1", "An unknown error.".
[2021-Nov-10 15:26:10] [trace] [  JLink] - JLINK_CORESIGHT_WriteAPDPReg(DP reg 0x00, 0x0000001F)  
[2021-Nov-10 15:26:10] [trace] [  JLink] - - 0.949ms returns -1  
[2021-Nov-10 15:26:10] [trace] [  JLink] - JLINK_HasError()  
[2021-Nov-10 15:26:10] [error] [SeggerBackend] - JLinkARM.dll reported "-1", "An unknown error.".
[2021-Nov-10 15:26:10] [trace] [  JLink] - JLINK_CORESIGHT_WriteAPDPReg(DP reg 0x02, 0x00000000)  
[2021-Nov-10 15:26:10] [trace] [  JLink] - - 0.957ms returns -1  
[2021-Nov-10 15:26:10] [trace] [  JLink] - JLINK_HasError()  
[2021-Nov-10 15:26:10] [error] [SeggerBackend] - JLinkARM.dll reported "-1", "An unknown error.".
[2021-Nov-10 15:26:10] [debug] [SeggerBackend] - ---just_abort_debug_action
[2021-Nov-10 15:26:10] [debug] [SeggerBackend] - Attempting to clear any configuration errors in debug port before closing connection. 
[2021-Nov-10 15:26:10] [trace] [  JLink] - JLINK_CORESIGHT_WriteAPDPReg(DP reg 0x00, 0x0000001F)  
[2021-Nov-10 15:26:10] [trace] [  JLink] - - 1.052ms returns -1  
[2021-Nov-10 15:26:10] [trace] [  JLink] - JLINK_HasError()  
[2021-Nov-10 15:26:10] [error] [SeggerBackend] - JLinkARM.dll reported "-1", "An unknown error.".
[2021-Nov-10 15:26:10] [trace] [  JLink] - JLINK_CORESIGHT_WriteAPDPReg(DP reg 0x00, 0x0000001F)  
[2021-Nov-10 15:26:10] [trace] [  JLink] - - 0.878ms returns -1  
[2021-Nov-10 15:26:10] [trace] [  JLink] - JLINK_HasError()  
[2021-Nov-10 15:26:10] [error] [SeggerBackend] - JLinkARM.dll reported "-1", "An unknown error.".
[2021-Nov-10 15:26:10] [trace] [  JLink] - JLINK_CORESIGHT_WriteAPDPReg(DP reg 0x00, 0x0000001F)  
[2021-Nov-10 15:26:10] [trace] [  JLink] - - 0.969ms returns -1  
[2021-Nov-10 15:26:10] [trace] [  JLink] - JLINK_HasError()  
[2021-Nov-10 15:26:10] [error] [SeggerBackend] - JLinkARM.dll reported "-1", "An unknown error.".
[2021-Nov-10 15:26:10] [trace] [  JLink] - JLINK_CORESIGHT_WriteAPDPReg(DP reg 0x00, 0x0000001F)  
[2021-Nov-10 15:26:10] [trace] [  JLink] - - 1.005ms returns -1  
[2021-Nov-10 15:26:10] [trace] [  JLink] - JLINK_HasError()  
[2021-Nov-10 15:26:10] [error] [SeggerBackend] - JLinkARM.dll reported "-1", "An unknown error.".
[2021-Nov-10 15:26:10] [trace] [  JLink] - JLINK_CORESIGHT_WriteAPDPReg(DP reg 0x00, 0x0000001F)  
[2021-Nov-10 15:26:10] [trace] [  JLink] - - 0.882ms returns -1  
[2021-Nov-10 15:26:10] [trace] [  JLink] - JLINK_HasError()  
[2021-Nov-10 15:26:10] [error] [SeggerBackend] - JLinkARM.dll reported "-1", "An unknown error.".
[2021-Nov-10 15:26:10] [trace] [  JLink] - JLINK_CORESIGHT_WriteAPDPReg(DP reg 0x02, 0x00000000)  
[2021-Nov-10 15:26:10] [trace] [  JLink] - - 0.975ms returns -1  
[2021-Nov-10 15:26:10] [trace] [  JLink] - JLINK_HasError()  
[2021-Nov-10 15:26:10] [error] [SeggerBackend] - JLinkARM.dll reported "-1", "An unknown error.".
[2021-Nov-10 15:26:10] [debug] [SeggerBackend] - ---just_abort_debug_action
[2021-Nov-10 15:26:10] [debug] [SeggerBackend] - Attempting to clear any configuration errors in debug port before closing connection. 
[2021-Nov-10 15:26:10] [trace] [  JLink] - JLINK_CORESIGHT_WriteAPDPReg(DP reg 0x00, 0x0000001F)  
[2021-Nov-10 15:26:10] [trace] [  JLink] - - 0.936ms returns -1  
[2021-Nov-10 15:26:10] [trace] [  JLink] - JLINK_HasError()  
[2021-Nov-10 15:26:10] [error] [SeggerBackend] - JLinkARM.dll reported "-1", "An unknown error.".
[2021-Nov-10 15:26:10] [trace] [  JLink] - JLINK_CORESIGHT_WriteAPDPReg(DP reg 0x00, 0x0000001F)  
[2021-Nov-10 15:26:10] [trace] [  JLink] - - 1.014ms returns -1  
[2021-Nov-10 15:26:10] [trace] [  JLink] - JLINK_HasError()  
[2021-Nov-10 15:26:10] [error] [SeggerBackend] - JLinkARM.dll reported "-1", "An unknown error.".
[2021-Nov-10 15:26:10] [trace] [  JLink] - JLINK_CORESIGHT_WriteAPDPReg(DP reg 0x00, 0x0000001F)  
[2021-Nov-10 15:26:10] [trace] [  JLink] - - 0.979ms returns -1  
[2021-Nov-10 15:26:10] [trace] [  JLink] - JLINK_HasError()  
[2021-Nov-10 15:26:10] [error] [SeggerBackend] - JLinkARM.dll reported "-1", "An unknown error.".
[2021-Nov-10 15:26:10] [trace] [  JLink] - JLINK_CORESIGHT_WriteAPDPReg(DP reg 0x00, 0x0000001F)  
[2021-Nov-10 15:26:10] [trace] [  JLink] - - 0.979ms returns -1  
[2021-Nov-10 15:26:10] [trace] [  JLink] - JLINK_HasError()  
[2021-Nov-10 15:26:10] [error] [SeggerBackend] - JLinkARM.dll reported "-1", "An unknown error.".
[2021-Nov-10 15:26:10] [trace] [  JLink] - JLINK_CORESIGHT_WriteAPDPReg(DP reg 0x00, 0x0000001F)  
[2021-Nov-10 15:26:10] [trace] [  JLink] - - 0.919ms returns -1  
[2021-Nov-10 15:26:10] [trace] [  JLink] - JLINK_HasError()  
[2021-Nov-10 15:26:10] [error] [SeggerBackend] - JLinkARM.dll reported "-1", "An unknown error.".
[2021-Nov-10 15:26:10] [trace] [  JLink] - - 0.019ms  
[2021-Nov-10 15:26:10] [trace] [ Worker] - Command connect_to_emu_with_snr executed for 192 milliseconds with result -102
[2021-Nov-10 15:26:10] [debug] [  nRFXX] - close
[2021-Nov-10 15:26:10] [debug] [SeggerBackend] - is_connected_to_emu
[2021-Nov-10 15:26:10] [trace] [  JLink] - JLINK_IsOpen()  
[2021-Nov-10 15:26:10] [trace] [  JLink] - - 0.010ms returns 0x01  
[2021-Nov-10 15:26:10] [trace] [  JLink] - JLINK_HasError()  
[2021-Nov-10 15:26:10] [trace] [  JLink] - JLINK_Lock()  
[2021-Nov-10 15:26:10] [debug] [SeggerBackend] - close
[2021-Nov-10 15:26:10] [debug] [SeggerBackend] - disconnect_from_emu
[2021-Nov-10 15:26:10] [debug] [SeggerBackend] - ---just_disconnect_from_emu
[2021-Nov-10 15:26:10] [debug] [SeggerBackend] - is_connected_to_device
[2021-Nov-10 15:26:10] [trace] [  JLink] - JLINK_IsConnected()  
[2021-Nov-10 15:26:10] [trace] [  JLink] - - 0.004ms returns FALSE  
[2021-Nov-10 15:26:10] [trace] [  JLink] - JLINK_HasError()  
[2021-Nov-10 15:26:10] [debug] [SeggerBackend] - ---just_is_debug_region_powered
[2021-Nov-10 15:26:10] [debug] [SeggerBackend] - ---just_read_debug_port_register
[2021-Nov-10 15:26:10] [debug] [SeggerBackend] - ---just_select_debug_port_register
[2021-Nov-10 15:26:10] [debug] [SeggerBackend] - Select AP 255, DP Bank 0, AP Bank 255
[2021-Nov-10 15:26:10] [trace] [  JLink] - JLINK_CORESIGHT_WriteAPDPReg(DP reg 0x02, 0x00000000)  
[2021-Nov-10 15:26:10] [trace] [  JLink] - - 1.020ms returns -1  
[2021-Nov-10 15:26:10] [trace] [  JLink] - JLINK_HasError()  
[2021-Nov-10 15:26:10] [error] [SeggerBackend] - JLinkARM.dll reported "-1", "An unknown error.".
[2021-Nov-10 15:26:10] [debug] [SeggerBackend] - ---just_abort_debug_action
[2021-Nov-10 15:26:10] [debug] [SeggerBackend] - Attempting to clear any configuration errors in debug port before closing connection. 
[2021-Nov-10 15:26:10] [trace] [  JLink] - JLINK_CORESIGHT_WriteAPDPReg(DP reg 0x00, 0x0000001F)  
[2021-Nov-10 15:26:10] [trace] [  JLink] - - 0.995ms returns -1  
[2021-Nov-10 15:26:10] [trace] [  JLink] - JLINK_HasError()  
[2021-Nov-10 15:26:10] [error] [SeggerBackend] - JLinkARM.dll reported "-1", "An unknown error.".
[2021-Nov-10 15:26:10] [trace] [  JLink] - JLINK_CORESIGHT_WriteAPDPReg(DP reg 0x00, 0x0000001F)  
[2021-Nov-10 15:26:10] [trace] [  JLink] - - 0.898ms returns -1  
[2021-Nov-10 15:26:10] [trace] [  JLink] - JLINK_HasError()  
[2021-Nov-10 15:26:10] [error] [SeggerBackend] - JLinkARM.dll reported "-1", "An unknown error.".
[2021-Nov-10 15:26:10] [trace] [  JLink] - JLINK_CORESIGHT_WriteAPDPReg(DP reg 0x00, 0x0000001F)  
[2021-Nov-10 15:26:10] [trace] [  JLink] - - 0.931ms returns -1  
[2021-Nov-10 15:26:10] [trace] [  JLink] - JLINK_HasError()  
[2021-Nov-10 15:26:10] [error] [SeggerBackend] - JLinkARM.dll reported "-1", "An unknown error.".
[2021-Nov-10 15:26:10] [trace] [  JLink] - JLINK_CORESIGHT_WriteAPDPReg(DP reg 0x00, 0x0000001F)  
[2021-Nov-10 15:26:10] [trace] [  JLink] - - 0.941ms returns -1  
[2021-Nov-10 15:26:10] [trace] [  JLink] - JLINK_HasError()  
[2021-Nov-10 15:26:10] [error] [SeggerBackend] - JLinkARM.dll reported "-1", "An unknown error.".
[2021-Nov-10 15:26:10] [trace] [  JLink] - JLINK_CORESIGHT_WriteAPDPReg(DP reg 0x00, 0x0000001F)  
[2021-Nov-10 15:26:10] [trace] [  JLink] - - 0.935ms returns -1  
[2021-Nov-10 15:26:10] [trace] [  JLink] - JLINK_HasError()  
[2021-Nov-10 15:26:10] [error] [SeggerBackend] - JLinkARM.dll reported "-1", "An unknown error.".
[2021-Nov-10 15:26:10] [trace] [  JLink] - JLINK_CORESIGHT_WriteAPDPReg(DP reg 0x02, 0x00000000)  
[2021-Nov-10 15:26:10] [trace] [  JLink] - - 0.971ms returns -1  
[2021-Nov-10 15:26:10] [trace] [  JLink] - JLINK_HasError()  
[2021-Nov-10 15:26:10] [error] [SeggerBackend] - JLinkARM.dll reported "-1", "An unknown error.".
[2021-Nov-10 15:26:10] [debug] [SeggerBackend] - ---just_abort_debug_action
[2021-Nov-10 15:26:10] [debug] [SeggerBackend] - Attempting to clear any configuration errors in debug port before closing connection. 
[2021-Nov-10 15:26:10] [trace] [  JLink] - JLINK_CORESIGHT_WriteAPDPReg(DP reg 0x00, 0x0000001F)  
[2021-Nov-10 15:26:10] [trace] [  JLink] - - 0.962ms returns -1  
[2021-Nov-10 15:26:10] [trace] [  JLink] - JLINK_HasError()  
[2021-Nov-10 15:26:10] [error] [SeggerBackend] - JLinkARM.dll reported "-1", "An unknown error.".
[2021-Nov-10 15:26:10] [trace] [  JLink] - JLINK_CORESIGHT_WriteAPDPReg(DP reg 0x00, 0x0000001F)  
[2021-Nov-10 15:26:10] [trace] [  JLink] - - 0.941ms returns -1  
[2021-Nov-10 15:26:10] [trace] [  JLink] - JLINK_HasError()  
[2021-Nov-10 15:26:10] [error] [SeggerBackend] - JLinkARM.dll reported "-1", "An unknown error.".
[2021-Nov-10 15:26:10] [trace] [  JLink] - JLINK_CORESIGHT_WriteAPDPReg(DP reg 0x00, 0x0000001F)  
[2021-Nov-10 15:26:10] [trace] [  JLink] - - 0.948ms returns -1  
[2021-Nov-10 15:26:10] [trace] [  JLink] - JLINK_HasError()  
[2021-Nov-10 15:26:10] [error] [SeggerBackend] - JLinkARM.dll reported "-1", "An unknown error.".
[2021-Nov-10 15:26:10] [trace] [  JLink] - JLINK_CORESIGHT_WriteAPDPReg(DP reg 0x00, 0x0000001F)  
[2021-Nov-10 15:26:10] [trace] [  JLink] - - 0.950ms returns -1  
[2021-Nov-10 15:26:10] [trace] [  JLink] - JLINK_HasError()  
[2021-Nov-10 15:26:10] [error] [SeggerBackend] - JLinkARM.dll reported "-1", "An unknown error.".
[2021-Nov-10 15:26:10] [trace] [  JLink] - JLINK_CORESIGHT_WriteAPDPReg(DP reg 0x00, 0x0000001F)  
[2021-Nov-10 15:26:10] [trace] [  JLink] - - 1.039ms returns -1  
[2021-Nov-10 15:26:10] [trace] [  JLink] - JLINK_HasError()  
[2021-Nov-10 15:26:10] [error] [SeggerBackend] - JLinkARM.dll reported "-1", "An unknown error.".
[2021-Nov-10 15:26:10] [trace] [  JLink] - JLINK_CORESIGHT_WriteAPDPReg(DP reg 0x02, 0x00000000)  
[2021-Nov-10 15:26:10] [trace] [  JLink] - - 0.930ms returns -1  
[2021-Nov-10 15:26:10] [trace] [  JLink] - JLINK_HasError()  
[2021-Nov-10 15:26:10] [error] [SeggerBackend] - JLinkARM.dll reported "-1", "An unknown error.".
[2021-Nov-10 15:26:10] [debug] [SeggerBackend] - ---just_abort_debug_action
[2021-Nov-10 15:26:10] [debug] [SeggerBackend] - Attempting to clear any configuration errors in debug port before closing connection. 
[2021-Nov-10 15:26:10] [trace] [  JLink] - JLINK_CORESIGHT_WriteAPDPReg(DP reg 0x00, 0x0000001F)  
[2021-Nov-10 15:26:10] [trace] [  JLink] - - 0.927ms returns -1  
[2021-Nov-10 15:26:10] [trace] [  JLink] - JLINK_HasError()  
[2021-Nov-10 15:26:10] [error] [SeggerBackend] - JLinkARM.dll reported "-1", "An unknown error.".
[2021-Nov-10 15:26:10] [trace] [  JLink] - JLINK_CORESIGHT_WriteAPDPReg(DP reg 0x00, 0x0000001F)  
[2021-Nov-10 15:26:10] [trace] [  JLink] - - 0.855ms returns -1  
[2021-Nov-10 15:26:10] [trace] [  JLink] - JLINK_HasError()  
[2021-Nov-10 15:26:10] [error] [SeggerBackend] - JLinkARM.dll reported "-1", "An unknown error.".
[2021-Nov-10 15:26:10] [trace] [  JLink] - JLINK_CORESIGHT_WriteAPDPReg(DP reg 0x00, 0x0000001F)  
[2021-Nov-10 15:26:10] [trace] [  JLink] - - 1.033ms returns -1  
[2021-Nov-10 15:26:10] [trace] [  JLink] - JLINK_HasError()  
[2021-Nov-10 15:26:10] [error] [SeggerBackend] - JLinkARM.dll reported "-1", "An unknown error.".
[2021-Nov-10 15:26:10] [trace] [  JLink] - JLINK_CORESIGHT_WriteAPDPReg(DP reg 0x00, 0x0000001F)  
[2021-Nov-10 15:26:10] [trace] [  JLink] - - 0.913ms returns -1  
[2021-Nov-10 15:26:10] [trace] [  JLink] - JLINK_HasError()  
[2021-Nov-10 15:26:10] [error] [SeggerBackend] - JLinkARM.dll reported "-1", "An unknown error.".
[2021-Nov-10 15:26:10] [trace] [  JLink] - JLINK_CORESIGHT_WriteAPDPReg(DP reg 0x00, 0x0000001F)  
[2021-Nov-10 15:26:10] [trace] [  JLink] - - 1.003ms returns -1  
[2021-Nov-10 15:26:10] [trace] [  JLink] - JLINK_HasError()  
[2021-Nov-10 15:26:10] [error] [SeggerBackend] - JLinkARM.dll reported "-1", "An unknown error.".
[2021-Nov-10 15:26:10] [trace] [  JLink] - JLINK_CORESIGHT_WriteAPDPReg(DP reg 0x02, 0x00000000)  
[2021-Nov-10 15:26:10] [trace] [  JLink] - - 0.907ms returns -1  
[2021-Nov-10 15:26:10] [trace] [  JLink] - JLINK_HasError()  
[2021-Nov-10 15:26:10] [error] [SeggerBackend] - JLinkARM.dll reported "-1", "An unknown error.".
[2021-Nov-10 15:26:10] [debug] [SeggerBackend] - ---just_abort_debug_action
[2021-Nov-10 15:26:10] [debug] [SeggerBackend] - Attempting to clear any configuration errors in debug port before closing connection. 
[2021-Nov-10 15:26:10] [trace] [  JLink] - JLINK_CORESIGHT_WriteAPDPReg(DP reg 0x00, 0x0000001F)  
[2021-Nov-10 15:26:10] [trace] [  JLink] - - 0.957ms returns -1  
[2021-Nov-10 15:26:10] [trace] [  JLink] - JLINK_HasError()  
[2021-Nov-10 15:26:10] [error] [SeggerBackend] - JLinkARM.dll reported "-1", "An unknown error.".
[2021-Nov-10 15:26:10] [trace] [  JLink] - JLINK_CORESIGHT_WriteAPDPReg(DP reg 0x00, 0x0000001F)  
[2021-Nov-10 15:26:10] [trace] [  JLink] - - 0.938ms returns -1  
[2021-Nov-10 15:26:10] [trace] [  JLink] - JLINK_HasError()  
[2021-Nov-10 15:26:10] [error] [SeggerBackend] - JLinkARM.dll reported "-1", "An unknown error.".
[2021-Nov-10 15:26:10] [trace] [  JLink] - JLINK_CORESIGHT_WriteAPDPReg(DP reg 0x00, 0x0000001F)  
[2021-Nov-10 15:26:10] [trace] [  JLink] - - 0.965ms returns -1  
[2021-Nov-10 15:26:10] [trace] [  JLink] - JLINK_HasError()  
[2021-Nov-10 15:26:10] [error] [SeggerBackend] - JLinkARM.dll reported "-1", "An unknown error.".
[2021-Nov-10 15:26:10] [trace] [  JLink] - JLINK_CORESIGHT_WriteAPDPReg(DP reg 0x00, 0x0000001F)  
[2021-Nov-10 15:26:10] [trace] [  JLink] - - 0.969ms returns -1  
[2021-Nov-10 15:26:10] [trace] [  JLink] - JLINK_HasError()  
[2021-Nov-10 15:26:10] [error] [SeggerBackend] - JLinkARM.dll reported "-1", "An unknown error.".
[2021-Nov-10 15:26:10] [trace] [  JLink] - JLINK_CORESIGHT_WriteAPDPReg(DP reg 0x00, 0x0000001F)  
[2021-Nov-10 15:26:10] [trace] [  JLink] - - 0.956ms returns -1  
[2021-Nov-10 15:26:10] [trace] [  JLink] - JLINK_HasError()  
[2021-Nov-10 15:26:10] [error] [SeggerBackend] - JLinkARM.dll reported "-1", "An unknown error.".
[2021-Nov-10 15:26:10] [trace] [  JLink] - JLINK_CORESIGHT_WriteAPDPReg(DP reg 0x02, 0x00000000)  
[2021-Nov-10 15:26:10] [trace] [  JLink] - - 1.029ms returns -1  
[2021-Nov-10 15:26:10] [trace] [  JLink] - JLINK_HasError()  
[2021-Nov-10 15:26:10] [error] [SeggerBackend] - JLinkARM.dll reported "-1", "An unknown error.".
[2021-Nov-10 15:26:10] [debug] [SeggerBackend] - ---just_abort_debug_action
[2021-Nov-10 15:26:10] [debug] [SeggerBackend] - Attempting to clear any configuration errors in debug port before closing connection. 
[2021-Nov-10 15:26:10] [trace] [  JLink] - JLINK_CORESIGHT_WriteAPDPReg(DP reg 0x00, 0x0000001F)  
[2021-Nov-10 15:26:10] [trace] [  JLink] - - 0.945ms returns -1  
[2021-Nov-10 15:26:10] [trace] [  JLink] - JLINK_HasError()  
[2021-Nov-10 15:26:10] [error] [SeggerBackend] - JLinkARM.dll reported "-1", "An unknown error.".
[2021-Nov-10 15:26:10] [trace] [  JLink] - JLINK_CORESIGHT_WriteAPDPReg(DP reg 0x00, 0x0000001F)  
[2021-Nov-10 15:26:10] [trace] [  JLink] - - 0.949ms returns -1  
[2021-Nov-10 15:26:10] [trace] [  JLink] - JLINK_HasError()  
[2021-Nov-10 15:26:10] [error] [SeggerBackend] - JLinkARM.dll reported "-1", "An unknown error.".
[2021-Nov-10 15:26:10] [trace] [  JLink] - JLINK_CORESIGHT_WriteAPDPReg(DP reg 0x00, 0x0000001F)  
[2021-Nov-10 15:26:10] [trace] [  JLink] - - 1.028ms returns -1  
[2021-Nov-10 15:26:10] [trace] [  JLink] - JLINK_HasError()  
[2021-Nov-10 15:26:10] [error] [SeggerBackend] - JLinkARM.dll reported "-1", "An unknown error.".
[2021-Nov-10 15:26:10] [trace] [  JLink] - JLINK_CORESIGHT_WriteAPDPReg(DP reg 0x00, 0x0000001F)  
[2021-Nov-10 15:26:10] [trace] [  JLink] - - 0.940ms returns -1  
[2021-Nov-10 15:26:10] [trace] [  JLink] - JLINK_HasError()  
[2021-Nov-10 15:26:10] [error] [SeggerBackend] - JLinkARM.dll reported "-1", "An unknown error.".
[2021-Nov-10 15:26:10] [trace] [  JLink] - JLINK_CORESIGHT_WriteAPDPReg(DP reg 0x00, 0x0000001F)  
[2021-Nov-10 15:26:10] [trace] [  JLink] - - 0.945ms returns -1  
[2021-Nov-10 15:26:10] [trace] [  JLink] - JLINK_HasError()  
[2021-Nov-10 15:26:10] [error] [SeggerBackend] - JLinkARM.dll reported "-1", "An unknown error.".
[2021-Nov-10 15:26:10] [trace] [  JLink] - - 0.023ms  
[2021-Nov-10 15:26:10] [trace] [  JLink] - JLINK_Close()  
[2021-Nov-10 15:26:10] [debug] [SeggerBackend] - Segger Backend closed.
[2021-Nov-10 15:26:10] [debug] [  nRFXX] - nRF family DLL closed
[2021-Nov-10 15:26:10] [trace] [ Client] - Command close executed for 66 milliseconds with result 0
[2021-Nov-10 15:26:10] [debug] [ Client] - terminate
[2021-Nov-10 15:26:10] [trace] [ Worker] - Command close executed for 60 milliseconds with result 0
[2021-Nov-10 15:26:10] [trace] [ Client] - Command terminate executed for 6 milliseconds with result 0
[2021-Nov-10 15:26:10] [debug] [ Client] - Worker process exited with code: 0
[2021-Nov-10 15:26:10] [debug] [ Client] - Worker process exited with code: 0
[2021-Nov-10 15:26:10] [trace] [ Worker] - Command terminate executed for 0 milliseconds with result 0
[2021-Nov-10 15:26:10] [trace] [ Worker] - Executed 5 commands for 257 milliseconds
[2021-Nov-10 15:26:10] [debug] [ Client] - Tried to wait on already ended process: wait error: No child processes
[2021-Nov-10 15:26:10] [debug] [ Client] - Child process terminated with result 0
[2021-Nov-10 15:26:11] [trace] [ Client] - Executed 5 commands for 287 milliseconds
[2021-Nov-10 15:26:11] [debug] [ Client] - terminate
[2021-Nov-10 15:26:46] [ info] --------------------------------------------------------------------------------
[2021-Nov-10 15:26:46] [ info] nrfjprog --deviceversion --log 
[2021-Nov-10 15:26:46] [ info] nrfjprog version 10.15.0 external
[2021-Nov-10 15:26:46] [ info] --------------------------------------------------------------------------------
[2021-Nov-10 15:26:46] [ info] Load library at /Applications/Nordic Semiconductor/lib/libnrfjprogdll.dylib.
[2021-Nov-10 15:26:46] [ info] Library loaded, loading member functions.
[2021-Nov-10 15:26:46] [ info] Member functions succesfully loaded.
[2021-Nov-10 15:26:46] [debug] [ Client] - open
[2021-Nov-10 15:26:46] [debug] [ Client] - start
[2021-Nov-10 15:26:46] [ info] [ Client] - stdout: Jlinkarm nRF Worker ready. Handling sequence 4db95e94-2e63-489d-8c94-5fca65f1306b.
[2021-Nov-10 15:26:46] [trace] [ Client] - Command open executed for 25 milliseconds with result 0
[2021-Nov-10 15:26:46] [debug] [ Client] - enum_emu_snr
[2021-Nov-10 15:26:46] [debug] [SeggerBackend] - Logger sink registered in Segger backend logger
[2021-Nov-10 15:26:46] [debug] [  JLink] - Logger sink registered in JLink logger
[2021-Nov-10 15:26:46] [debug] [  nRFXX] - open
[2021-Nov-10 15:26:46] [debug] [  nRFXX] - just_check_family
[2021-Nov-10 15:26:46] [debug] [SeggerBackend] - open_dll
[2021-Nov-10 15:26:46] [debug] [SeggerBackend] - No J-Link DLL path was provided. Attempting to auto detect.
[2021-Nov-10 15:26:46] [ info] [SeggerBackend] - Load library at /Applications/SEGGER/JLink/libjlinkarm.7.58.0.dylib.
[2021-Nov-10 15:26:46] [ info] [SeggerBackend] - Library loaded, loading member functions.
[2021-Nov-10 15:26:46] [ info] [SeggerBackend] - Member functions succesfully loaded.
[2021-Nov-10 15:26:46] [debug] [SeggerBackend] - dll_version
[2021-Nov-10 15:26:46] [ info] [SeggerBackend] - Segger dll version 7.58.  loaded.
[2021-Nov-10 15:26:46] [trace] [ Worker] - Command open executed for 16 milliseconds with result 0
[2021-Nov-10 15:26:46] [trace] [ Client] - Command enum_emu_con_info executed for 6 milliseconds with result 0
[2021-Nov-10 15:26:46] [debug] [ Client] - connect_to_emu_with_snr
[2021-Nov-10 15:26:46] [debug] [  nRFXX] - enum_emu_con_info
[2021-Nov-10 15:26:46] [debug] [SeggerBackend] - is_connected_to_emu
[2021-Nov-10 15:26:46] [debug] [SeggerBackend] - enum_emu_con_info
[2021-Nov-10 15:26:46] [debug] [SeggerBackend] - is_connected_to_emu
[2021-Nov-10 15:26:46] [trace] [ Worker] - Command enum_emu_con_info executed for 0 milliseconds with result 0
[2021-Nov-10 15:26:46] [debug] [  nRFXX] - connect_to_emu_with_snr
[2021-Nov-10 15:26:46] [debug] [SeggerBackend] - is_connected_to_emu
[2021-Nov-10 15:26:46] [debug] [SeggerBackend] - connect_to_emu_with_snr
[2021-Nov-10 15:26:46] [debug] [SeggerBackend] - is_connected_to_emu
[2021-Nov-10 15:26:46] [debug] [SeggerBackend] - ---just_enum_emu_snr
[2021-Nov-10 15:26:46] [debug] [SeggerBackend] - ---just_get_num_emus
[2021-Nov-10 15:26:46] [debug] [SeggerBackend] - ---just_connect_to_emu_with_snr
[2021-Nov-10 15:26:46] [debug] [SeggerBackend] - ---just_connect_to_emu_without_snr
[2021-Nov-10 15:26:46] [debug] [SeggerBackend] - Segger logging enabled.
[2021-Nov-10 15:26:46] [trace] [  JLink] - Firmware: J-Link EDU Mini V1 compiled Nov  2 2021 11:12:01
[2021-Nov-10 15:26:46] [trace] [  JLink] - Firmware: J-Link EDU Mini V1 compiled Nov  2 2021 11:12:01
[2021-Nov-10 15:26:46] [trace] [ Client] - Command connect_to_emu_with_snr executed for 65 milliseconds with result 0
[2021-Nov-10 15:26:46] [debug] [ Client] - read_connected_emu_snr
[2021-Nov-10 15:26:46] [trace] [  JLink] - Hardware: V1.00
[2021-Nov-10 15:26:46] [trace] [  JLink] - S/N: 801036476
[2021-Nov-10 15:26:46] [trace] [  JLink] - OEM: SEGGER
[2021-Nov-10 15:26:46] [trace] [  JLink] - Feature(s): FlashBP, GDB
[2021-Nov-10 15:26:46] [trace] [  JLink] - TELNET listener socket opened on port 19021
[2021-Nov-10 15:26:46] [trace] [  JLink] - WEBSRV WEBSRV_Init(): Starting webserver thread(s)
[2021-Nov-10 15:26:46] [trace] [  JLink] - WEBSRV Webserver running on local port 19080
[2021-Nov-10 15:26:46] [trace] [  JLink] - - 27.713ms returns "O.K."  
[2021-Nov-10 15:26:46] [trace] [  JLink] - JLINK_HasError()  
[2021-Nov-10 15:26:46] [trace] [  JLink] - JLINK_Lock()  
[2021-Nov-10 15:26:46] [trace] [  JLink] - JLINK_GetHWStatus(...)  
[2021-Nov-10 15:26:46] [trace] [  JLink] - - 0.341ms returns 0  
[2021-Nov-10 15:26:46] [trace] [  JLink] - JLINK_HasError()  
[2021-Nov-10 15:26:46] [trace] [  JLink] - JLINK_ExecCommand("SetRestartOnClose = 0", ...).   
[2021-Nov-10 15:26:46] [trace] [  JLink] - - 0.019ms returns 0x01  
[2021-Nov-10 15:26:46] [trace] [  JLink] - JLINK_HasError()  
[2021-Nov-10 15:26:46] [trace] [  JLink] - JLINK_ExecCommand("DisableFlashDL", ...).   
[2021-Nov-10 15:26:46] [trace] [  JLink] - - 0.002ms returns 0x00  
[2021-Nov-10 15:26:46] [trace] [  JLink] - JLINK_HasError()  
[2021-Nov-10 15:26:46] [trace] [  JLink] - JLINK_ExecCommand("ExcludeFlashCacheRange 0x0-0xFFFFFFFF", ...).   
[2021-Nov-10 15:26:46] [trace] [  JLink] - - 0.017ms returns 0x00  
[2021-Nov-10 15:26:46] [trace] [  JLink] - JLINK_HasError()  
[2021-Nov-10 15:26:46] [trace] [  JLink] - JLINK_SetHookUnsecureDialog  
[2021-Nov-10 15:26:46] [trace] [  JLink] - JLINK_SetHookUnsecureDialog(...)
[2021-Nov-10 15:26:46] [trace] [  JLink] - - 0.007ms returns 0  
[2021-Nov-10 15:26:46] [trace] [  JLink] - JLINK_HasError()  
[2021-Nov-10 15:26:46] [trace] [  JLink] - JLINK_TIF_Select(JLINKARM_TIF_SWD)  
[2021-Nov-10 15:26:46] [trace] [  JLink] - - 1.570ms returns 0x00  
[2021-Nov-10 15:26:46] [trace] [  JLink] - JLINK_HasError()  
[2021-Nov-10 15:26:46] [trace] [  JLink] - JLINK_SetSpeed(2000)  
[2021-Nov-10 15:26:46] [trace] [  JLink] - - 0.146ms  
[2021-Nov-10 15:26:46] [trace] [  JLink] - JLINK_HasError()  
[2021-Nov-10 15:26:46] [trace] [  JLink] - JLINK_GetSN()  
[2021-Nov-10 15:26:46] [trace] [  JLink] - - 0.002ms returns 801036476  
[2021-Nov-10 15:26:46] [trace] [  JLink] - JLINK_HasError()  
[2021-Nov-10 15:26:46] [debug] [SeggerBackend] - read_debug_port_idr
[2021-Nov-10 15:26:46] [debug] [SeggerBackend] - read_debug_port_register
[2021-Nov-10 15:26:46] [debug] [SeggerBackend] - ---just_read_debug_port_register
[2021-Nov-10 15:26:46] [debug] [SeggerBackend] - coresight_configure
[2021-Nov-10 15:26:46] [trace] [  JLink] - JLINK_CORESIGHT_Configure()  
[2021-Nov-10 15:26:46] [trace] [  JLink] - - 1.588ms returns 0  
[2021-Nov-10 15:26:46] [trace] [  JLink] - JLINK_HasError()  
[2021-Nov-10 15:26:46] [debug] [SeggerBackend] - ---just_select_debug_port_register
[2021-Nov-10 15:26:46] [debug] [SeggerBackend] - Select AP 255, DP Bank 0, AP Bank 255
[2021-Nov-10 15:26:46] [trace] [  JLink] - JLINK_CORESIGHT_WriteAPDPReg(DP reg 0x02, 0x00000000)  
[2021-Nov-10 15:26:46] [trace] [  JLink] - - 0.502ms returns 0  
[2021-Nov-10 15:26:46] [trace] [  JLink] - JLINK_HasError()  
[2021-Nov-10 15:26:46] [trace] [  JLink] - JLINK_CORESIGHT_ReadAPDPReg(DP reg 0x00)  
[2021-Nov-10 15:26:46] [trace] [  JLink] - Value=0x2BA01477
[2021-Nov-10 15:26:46] [trace] [  JLink] - - 0.404ms returns 0  
[2021-Nov-10 15:26:46] [trace] [  JLink] - JLINK_HasError()  
[2021-Nov-10 15:26:46] [trace] [  JLink] - - 0.003ms  
[2021-Nov-10 15:26:46] [trace] [ Worker] - Command connect_to_emu_with_snr executed for 55 milliseconds with result 0
[2021-Nov-10 15:26:46] [trace] [ Client] - Command read_connected_emu_snr executed for 12 milliseconds with result 0
[2021-Nov-10 15:26:46] [debug] [ Client] - read_device_family
[2021-Nov-10 15:26:46] [trace] [ Client] - Command read_device_family executed for 11 milliseconds with result 0
[2021-Nov-10 15:26:46] [debug] [ Client] - select_family
[2021-Nov-10 15:26:46] [debug] [  nRFXX] - read_connected_emu_snr
[2021-Nov-10 15:26:46] [debug] [SeggerBackend] - is_connected_to_emu
[2021-Nov-10 15:26:46] [trace] [  JLink] - JLINK_IsOpen()  
[2021-Nov-10 15:26:46] [trace] [  JLink] - - 0.023ms returns 0x01  
[2021-Nov-10 15:26:46] [trace] [  JLink] - JLINK_HasError()  
[2021-Nov-10 15:26:46] [trace] [  JLink] - JLINK_Lock()  
[2021-Nov-10 15:26:46] [debug] [SeggerBackend] - read_connected_emu_snr
[2021-Nov-10 15:26:46] [trace] [  JLink] - - 0.003ms  
[2021-Nov-10 15:26:46] [trace] [ Worker] - Command read_connected_emu_snr executed for 0 milliseconds with result 0
[2021-Nov-10 15:26:46] [debug] [  nRFXX] - read_device_family
[2021-Nov-10 15:26:46] [debug] [SeggerBackend] - is_connected_to_emu
[2021-Nov-10 15:26:46] [trace] [  JLink] - JLINK_IsOpen()  
[2021-Nov-10 15:26:46] [trace] [  JLink] - - 0.006ms returns 0x01  
[2021-Nov-10 15:26:46] [trace] [  JLink] - JLINK_HasError()  
[2021-Nov-10 15:26:46] [trace] [  JLink] - JLINK_Lock()  
[2021-Nov-10 15:26:46] [debug] [SeggerBackend] - read_debug_port_idr
[2021-Nov-10 15:26:46] [debug] [SeggerBackend] - read_debug_port_register
[2021-Nov-10 15:26:46] [debug] [SeggerBackend] - ---just_read_debug_port_register
[2021-Nov-10 15:26:46] [debug] [SeggerBackend] - ---just_select_debug_port_register
[2021-Nov-10 15:26:46] [debug] [SeggerBackend] - Select AP 255, DP Bank 0, AP Bank 255
[2021-Nov-10 15:26:46] [trace] [  JLink] - JLINK_CORESIGHT_WriteAPDPReg(DP reg 0x02, 0x00000000)  
[2021-Nov-10 15:26:46] [trace] [  JLink] - - 0.632ms returns 0  
[2021-Nov-10 15:26:46] [trace] [  JLink] - JLINK_HasError()  
[2021-Nov-10 15:26:46] [trace] [  JLink] - JLINK_CORESIGHT_ReadAPDPReg(DP reg 0x00)  
[2021-Nov-10 15:26:46] [trace] [  JLink] - Value=0x2BA01477
[2021-Nov-10 15:26:46] [trace] [  JLink] - - 1.002ms returns 0  
[2021-Nov-10 15:26:46] [trace] [  JLink] - JLINK_HasError()  
[2021-Nov-10 15:26:46] [ info] [  nRFXX] - Discovered device from family NRF52.
[2021-Nov-10 15:26:46] [trace] [  JLink] - - 0.005ms  
[2021-Nov-10 15:26:46] [trace] [ Worker] - Command read_device_family executed for 1 milliseconds with result 0
[2021-Nov-10 15:26:46] [trace] [ Client] - Command select_family executed for 6 milliseconds with result 0
[2021-Nov-10 15:26:46] [debug] [ Client] - read_device_info
[2021-Nov-10 15:26:46] [debug] [SeggerBackend] - set_core_data
[2021-Nov-10 15:26:46] [trace] [ Worker] - Command select_family executed for 0 milliseconds with result 0
[2021-Nov-10 15:26:46] [debug] [  nRF52] - read_device_info
[2021-Nov-10 15:26:46] [debug] [SeggerBackend] - is_connected_to_emu
[2021-Nov-10 15:26:46] [trace] [  JLink] - JLINK_IsOpen()  
[2021-Nov-10 15:26:46] [trace] [  JLink] - - 0.006ms returns 0x01  
[2021-Nov-10 15:26:46] [trace] [  JLink] - JLINK_HasError()  
[2021-Nov-10 15:26:46] [trace] [  JLink] - JLINK_Lock()  
[2021-Nov-10 15:26:46] [debug] [  nRF52] - Just_read_device_version
[2021-Nov-10 15:26:46] [debug] [  nRF52] - Just_readback_status
[2021-Nov-10 15:26:46] [debug] [  nRF52] - Just_is_ctrl_ap_available
[2021-Nov-10 15:26:46] [debug] [SeggerBackend] - read_access_port_register
[2021-Nov-10 15:26:46] [debug] [SeggerBackend] - ---just_read_access_port_register
[2021-Nov-10 15:26:46] [debug] [SeggerBackend] - ---just_is_debug_region_powered
[2021-Nov-10 15:26:46] [debug] [SeggerBackend] - ---just_read_debug_port_register
[2021-Nov-10 15:26:46] [debug] [SeggerBackend] - ---just_select_debug_port_register
[2021-Nov-10 15:26:46] [debug] [SeggerBackend] - Select AP 255, DP Bank 0, AP Bank 255
[2021-Nov-10 15:26:46] [trace] [  JLink] - JLINK_CORESIGHT_WriteAPDPReg(DP reg 0x02, 0x00000000)  
[2021-Nov-10 15:26:46] [trace] [  JLink] - - 0.986ms returns 0  
[2021-Nov-10 15:26:46] [trace] [  JLink] - JLINK_HasError()  
[2021-Nov-10 15:26:46] [trace] [  JLink] - JLINK_CORESIGHT_ReadAPDPReg(DP reg 0x01)  
[2021-Nov-10 15:26:46] [trace] [  JLink] - Value=0xF0000000
[2021-Nov-10 15:26:46] [trace] [  JLink] - - 0.573ms returns 0  
[2021-Nov-10 15:26:46] [trace] [  JLink] - JLINK_HasError()  
[2021-Nov-10 15:26:46] [debug] [SeggerBackend] - ---just_select_access_port_register
[2021-Nov-10 15:26:46] [debug] [SeggerBackend] - Select AP 1, DP Bank 0, AP Bank 15
[2021-Nov-10 15:26:46] [trace] [  JLink] - JLINK_CORESIGHT_WriteAPDPReg(DP reg 0x02, 0x010000F0)  
[2021-Nov-10 15:26:46] [trace] [  JLink] - - 0.397ms returns 0  
[2021-Nov-10 15:26:46] [trace] [  JLink] - JLINK_HasError()  
[2021-Nov-10 15:26:46] [trace] [  JLink] - JLINK_CORESIGHT_ReadAPDPReg(AP reg 0x03)  
[2021-Nov-10 15:26:46] [trace] [  JLink] - Value=0x02880000
[2021-Nov-10 15:26:46] [trace] [  JLink] - - 0.633ms returns 0  
[2021-Nov-10 15:26:46] [trace] [  JLink] - JLINK_HasError()  
[2021-Nov-10 15:26:46] [debug] [SeggerBackend] - read_access_port_register
[2021-Nov-10 15:26:46] [debug] [SeggerBackend] - ---just_read_access_port_register
[2021-Nov-10 15:26:46] [debug] [SeggerBackend] - ---just_select_access_port_register
[2021-Nov-10 15:26:46] [trace] [  JLink] - JLINK_CORESIGHT_ReadAPDPReg(AP reg 0x03)  
[2021-Nov-10 15:26:46] [trace] [  JLink] - Value=0x02880000
[2021-Nov-10 15:26:46] [trace] [  JLink] - - 0.333ms returns 0  
[2021-Nov-10 15:26:46] [trace] [  JLink] - JLINK_HasError()  
[2021-Nov-10 15:26:46] [debug] [SeggerBackend] - read_access_port_register
[2021-Nov-10 15:26:46] [debug] [SeggerBackend] - ---just_read_access_port_register
[2021-Nov-10 15:26:46] [debug] [SeggerBackend] - ---just_select_access_port_register
[2021-Nov-10 15:26:46] [trace] [  JLink] - JLINK_CORESIGHT_ReadAPDPReg(AP reg 0x03)  
[2021-Nov-10 15:26:46] [trace] [  JLink] - Value=0x02880000
[2021-Nov-10 15:26:46] [trace] [  JLink] - - 0.639ms returns 0  
[2021-Nov-10 15:26:46] [trace] [  JLink] - JLINK_HasError()  
[2021-Nov-10 15:26:46] [debug] [SeggerBackend] - read_access_port_register
[2021-Nov-10 15:26:46] [debug] [SeggerBackend] - ---just_read_access_port_register
[2021-Nov-10 15:26:46] [debug] [SeggerBackend] - ---just_select_access_port_register
[2021-Nov-10 15:26:46] [trace] [  JLink] - JLINK_CORESIGHT_ReadAPDPReg(AP reg 0x03)  
[2021-Nov-10 15:26:46] [trace] [  JLink] - Value=0x02880000
[2021-Nov-10 15:26:46] [trace] [  JLink] - - 0.378ms returns 0  
[2021-Nov-10 15:26:46] [trace] [  JLink] - JLINK_HasError()  
[2021-Nov-10 15:26:46] [debug] [SeggerBackend] - read_access_port_register
[2021-Nov-10 15:26:46] [debug] [SeggerBackend] - ---just_read_access_port_register
[2021-Nov-10 15:26:46] [debug] [SeggerBackend] - ---just_select_access_port_register
[2021-Nov-10 15:26:46] [debug] [SeggerBackend] - Select AP 1, DP Bank 0, AP Bank 0
[2021-Nov-10 15:26:46] [trace] [  JLink] - JLINK_CORESIGHT_WriteAPDPReg(DP reg 0x02, 0x01000000)  
[2021-Nov-10 15:26:46] [trace] [  JLink] - - 0.518ms returns 0  
[2021-Nov-10 15:26:46] [trace] [  JLink] - JLINK_HasError()  
[2021-Nov-10 15:26:46] [trace] [  JLink] - JLINK_CORESIGHT_ReadAPDPReg(AP reg 0x03)  
[2021-Nov-10 15:26:46] [trace] [  JLink] - Value=0x00000001
[2021-Nov-10 15:26:46] [trace] [  JLink] - - 0.452ms returns 0  
[2021-Nov-10 15:26:46] [trace] [  JLink] - JLINK_HasError()  
[2021-Nov-10 15:26:46] [debug] [SeggerBackend] - read_access_port_register
[2021-Nov-10 15:26:46] [debug] [SeggerBackend] - ---just_read_access_port_register
[2021-Nov-10 15:26:46] [debug] [SeggerBackend] - ---just_select_access_port_register
[2021-Nov-10 15:26:46] [trace] [  JLink] - JLINK_CORESIGHT_ReadAPDPReg(AP reg 0x03)  
[2021-Nov-10 15:26:46] [trace] [  JLink] - Value=0x00000001
[2021-Nov-10 15:26:46] [trace] [  JLink] - - 0.609ms returns 0  
[2021-Nov-10 15:26:46] [trace] [  JLink] - JLINK_HasError()  
[2021-Nov-10 15:26:46] [debug] [SeggerBackend] - read_access_port_register
[2021-Nov-10 15:26:46] [debug] [SeggerBackend] - ---just_read_access_port_register
[2021-Nov-10 15:26:46] [debug] [SeggerBackend] - ---just_select_access_port_register
[2021-Nov-10 15:26:46] [trace] [  JLink] - JLINK_CORESIGHT_ReadAPDPReg(AP reg 0x03)  
[2021-Nov-10 15:26:46] [trace] [  JLink] - Value=0x00000001
[2021-Nov-10 15:26:46] [trace] [  JLink] - - 0.404ms returns 0  
[2021-Nov-10 15:26:46] [trace] [  JLink] - JLINK_HasError()  
[2021-Nov-10 15:26:46] [debug] [SeggerBackend] - read_access_port_register
[2021-Nov-10 15:26:46] [debug] [SeggerBackend] - ---just_read_access_port_register
[2021-Nov-10 15:26:46] [debug] [SeggerBackend] - ---just_select_access_port_register
[2021-Nov-10 15:26:46] [trace] [  JLink] - JLINK_CORESIGHT_ReadAPDPReg(AP reg 0x03)  
[2021-Nov-10 15:26:46] [trace] [  JLink] - Value=0x00000001
[2021-Nov-10 15:26:46] [trace] [  JLink] - - 0.508ms returns 0  
[2021-Nov-10 15:26:46] [trace] [  JLink] - JLINK_HasError()  
[2021-Nov-10 15:26:46] [ info] [  nRF52] - Protection status read as NONE
[2021-Nov-10 15:26:46] [debug] [SeggerBackend] - read_u32
[2021-Nov-10 15:26:46] [debug] [SeggerBackend] - ---just_connect_to_device
[2021-Nov-10 15:26:46] [debug] [SeggerBackend] - is_connected_to_device
[2021-Nov-10 15:26:46] [trace] [  JLink] - JLINK_IsConnected()  
[2021-Nov-10 15:26:46] [trace] [  JLink] - - 0.002ms returns FALSE  
[2021-Nov-10 15:26:46] [trace] [  JLink] - JLINK_HasError()  
[2021-Nov-10 15:26:46] [debug] [SeggerBackend] - ---set_coresight_ahb_ap_index
[2021-Nov-10 15:26:46] [trace] [  JLink] - JLINK_ExecCommand("CORESIGHT_SetIndexAHBAPToUse = 0", ...).   
[2021-Nov-10 15:26:46] [trace] [  JLink] - - 0.001ms returns 0x00  
[2021-Nov-10 15:26:46] [trace] [  JLink] - JLINK_HasError()  
[2021-Nov-10 15:26:46] [trace] [  JLink] - JLINK_ExecCommand("device = Cortex-M4", ...).   
[2021-Nov-10 15:26:46] [trace] [  JLink] - Device "CORTEX-M4" selected.
[2021-Nov-10 15:26:46] [trace] [  JLink] - Device "CORTEX-M4" selected.
[2021-Nov-10 15:26:46] [trace] [  JLink] - - 0.437ms returns 0x00  
[2021-Nov-10 15:26:46] [trace] [  JLink] - JLINK_HasError()  
[2021-Nov-10 15:26:46] [trace] [  JLink] - JLINK_Connect()  
[2021-Nov-10 15:26:46] [trace] [  JLink] - Found SW-DP with ID 0x2BA01477
[2021-Nov-10 15:26:46] [trace] [  JLink] - Found SW-DP with ID 0x2BA01477
[2021-Nov-10 15:26:46] [trace] [  JLink] - DPIDR: 0x2BA01477
[2021-Nov-10 15:26:46] [trace] [  JLink] - DPIDR: 0x2BA01477
[2021-Nov-10 15:26:46] [trace] [  JLink] - AP map detection skipped. Manually configured AP map found.
[2021-Nov-10 15:26:46] [trace] [  JLink] - AP map detection skipped. Manually configured AP map found.
[2021-Nov-10 15:26:46] [trace] [  JLink] - AP[0]: AHB-AP (IDR: Not set)
[2021-Nov-10 15:26:46] [trace] [  JLink] - AP[0]: AHB-AP (IDR: Not set)
[2021-Nov-10 15:26:46] [trace] [  JLink] - AP[0]: Core found
[2021-Nov-10 15:26:46] [trace] [  JLink] - AP[0]: Core found
[2021-Nov-10 15:26:46] [trace] [  JLink] - AP[0]: AHB-AP ROM base: 0xE00FF000
[2021-Nov-10 15:26:46] [trace] [  JLink] - AP[0]: AHB-AP ROM base: 0xE00FF000
[2021-Nov-10 15:26:46] [trace] [  JLink] - CPUID register: 0x410FC241. Implementer code: 0x41 (ARM)
[2021-Nov-10 15:26:46] [trace] [  JLink] - CPUID register: 0x410FC241. Implementer code: 0x41 (ARM)
[2021-Nov-10 15:26:46] [trace] [  JLink] - Found Cortex-M4 r0p1, Little endian.
[2021-Nov-10 15:26:46] [trace] [  JLink] - Found Cortex-M4 r0p1, Little endian.
[2021-Nov-10 15:26:47] [trace] [  JLink] - -- Max. mem block: 0x00002BB8
[2021-Nov-10 15:26:47] [trace] [  JLink] - CPU_ReadMem(4 bytes @ 0xE000EDF0)
[2021-Nov-10 15:26:47] [trace] [  JLink] - CPU_WriteMem(4 bytes @ 0xE000EDF0)
